! ListType=Lin
# MHZ S RI R 50
100.0000000   0.0838424  -0.0560603  -0.3115788   0.0903242   0.0000000   0.0000000   0.0000000   0.0000000
100.8797654   0.0836442  -0.0553696  -0.3110888   0.0915680   0.0000000   0.0000000   0.0000000   0.0000000
101.7595308   0.0839063  -0.0548889  -0.3106195   0.0928677   0.0000000   0.0000000   0.0000000   0.0000000
102.6392962   0.0839572  -0.0544587  -0.3102687   0.0940941   0.0000000   0.0000000   0.0000000   0.0000000
103.5190616   0.0837441  -0.0539061  -0.3098574   0.0953375   0.0000000   0.0000000   0.0000000   0.0000000
104.3988270   0.0838075  -0.0535312  -0.3093715   0.0965871   0.0000000   0.0000000   0.0000000   0.0000000
105.2785924   0.0836643  -0.0530409  -0.3088744   0.0977955   0.0000000   0.0000000   0.0000000   0.0000000
106.1583578   0.0836713  -0.0535935  -0.3071220   0.0992815   0.0000000   0.0000000   0.0000000   0.0000000
107.0381232   0.0836386  -0.0517531  -0.3086058   0.1012062   0.0000000   0.0000000   0.0000000   0.0000000
107.9178886   0.0837201  -0.0511889  -0.3083083   0.1024985   0.0000000   0.0000000   0.0000000   0.0000000
108.7976540   0.0829648  -0.0521783  -0.3078386   0.1029457   0.0000000   0.0000000   0.0000000   0.0000000
109.6774194   0.0830449  -0.0517551  -0.3074023   0.1042664   0.0000000   0.0000000   0.0000000   0.0000000
110.5571848   0.0830529  -0.0513568  -0.3070212   0.1055206   0.0000000   0.0000000   0.0000000   0.0000000
111.4369501   0.0829017  -0.0508286  -0.3065938   0.1068594   0.0000000   0.0000000   0.0000000   0.0000000
112.3167155   0.0828478  -0.0504885  -0.3062577   0.1079704   0.0000000   0.0000000   0.0000000   0.0000000
113.1964809   0.0828412  -0.0500296  -0.3057020   0.1093809   0.0000000   0.0000000   0.0000000   0.0000000
114.0762463   0.0827959  -0.0496641  -0.3052362   0.1106502   0.0000000   0.0000000   0.0000000   0.0000000
114.9560117   0.0829117  -0.0491132  -0.3048811   0.1117261   0.0000000   0.0000000   0.0000000   0.0000000
115.8357771   0.0829357  -0.0488001  -0.3042831   0.1130886   0.0000000   0.0000000   0.0000000   0.0000000
116.7155425   0.0828587  -0.0486379  -0.3038927   0.1143287   0.0000000   0.0000000   0.0000000   0.0000000
117.5953079   0.0828071  -0.0480894  -0.3034657   0.1155200   0.0000000   0.0000000   0.0000000   0.0000000
118.4750733   0.0828183  -0.0476585  -0.3029479   0.1167798   0.0000000   0.0000000   0.0000000   0.0000000
119.3548387   0.0830461  -0.0472977  -0.3024098   0.1179350   0.0000000   0.0000000   0.0000000   0.0000000
120.2346041   0.0829529  -0.0468606  -0.3020208   0.1191223   0.0000000   0.0000000   0.0000000   0.0000000
121.1143695   0.0828610  -0.0462823  -0.3014296   0.1203843   0.0000000   0.0000000   0.0000000   0.0000000
121.9941349   0.0830485  -0.0462241  -0.3009109   0.1215237   0.0000000   0.0000000   0.0000000   0.0000000
122.8739003   0.0830746  -0.0456947  -0.3004288   0.1227258   0.0000000   0.0000000   0.0000000   0.0000000
123.7536657   0.0832454  -0.0454838  -0.2998518   0.1239751   0.0000000   0.0000000   0.0000000   0.0000000
124.6334311   0.0831332  -0.0448576  -0.2994718   0.1251557   0.0000000   0.0000000   0.0000000   0.0000000
125.5131965   0.0831476  -0.0445284  -0.2989191   0.1263408   0.0000000   0.0000000   0.0000000   0.0000000
126.3929619   0.0832570  -0.0442357  -0.2984320   0.1275000   0.0000000   0.0000000   0.0000000   0.0000000
127.2727273   0.0834055  -0.0439756  -0.2977931   0.1286776   0.0000000   0.0000000   0.0000000   0.0000000
128.1524927   0.0832744  -0.0436549  -0.2973310   0.1299033   0.0000000   0.0000000   0.0000000   0.0000000
129.0322581   0.0833686  -0.0430013  -0.2967883   0.1310060   0.0000000   0.0000000   0.0000000   0.0000000
129.9120235   0.0833185  -0.0428419  -0.2962762   0.1321854   0.0000000   0.0000000   0.0000000   0.0000000
130.7917889   0.0835718  -0.0424744  -0.2957319   0.1333200   0.0000000   0.0000000   0.0000000   0.0000000
131.6715543   0.0836539  -0.0423406  -0.2952424   0.1345196   0.0000000   0.0000000   0.0000000   0.0000000
132.5513196   0.0835855  -0.0419405  -0.2946554   0.1356708   0.0000000   0.0000000   0.0000000   0.0000000
133.4310850   0.0835827  -0.0417447  -0.2940420   0.1368456   0.0000000   0.0000000   0.0000000   0.0000000
134.3108504   0.0835688  -0.0410669  -0.2934980   0.1379507   0.0000000   0.0000000   0.0000000   0.0000000
135.1906158   0.0837659  -0.0411483  -0.2930571   0.1390067   0.0000000   0.0000000   0.0000000   0.0000000
136.0703812   0.0839675  -0.0406645  -0.2924054   0.1402196   0.0000000   0.0000000   0.0000000   0.0000000
136.9501466   0.0838140  -0.0402226  -0.2918799   0.1412746   0.0000000   0.0000000   0.0000000   0.0000000
137.8299120   0.0839817  -0.0404100  -0.2913281   0.1424140   0.0000000   0.0000000   0.0000000   0.0000000
138.7096774   0.0839464  -0.0399463  -0.2907678   0.1435386   0.0000000   0.0000000   0.0000000   0.0000000
139.5894428   0.0841414  -0.0394056  -0.2901798   0.1446661   0.0000000   0.0000000   0.0000000   0.0000000
140.4692082   0.0840976  -0.0390310  -0.2895370   0.1457696   0.0000000   0.0000000   0.0000000   0.0000000
141.3489736   0.0842515  -0.0389352  -0.2890386   0.1469118   0.0000000   0.0000000   0.0000000   0.0000000
142.2287390   0.0844616  -0.0388086  -0.2883727   0.1479090   0.0000000   0.0000000   0.0000000   0.0000000
143.1085044   0.0847083  -0.0384004  -0.2877636   0.1492560   0.0000000   0.0000000   0.0000000   0.0000000
143.9882698   0.0843024  -0.0380847  -0.2873712   0.1503338   0.0000000   0.0000000   0.0000000   0.0000000
144.8680352   0.0845315  -0.0377333  -0.2867183   0.1511855   0.0000000   0.0000000   0.0000000   0.0000000
145.7478006   0.0847654  -0.0374525  -0.2859572   0.1523781   0.0000000   0.0000000   0.0000000   0.0000000
146.6275660   0.0849176  -0.0373601  -0.2854184   0.1534574   0.0000000   0.0000000   0.0000000   0.0000000
147.5073314   0.0849761  -0.0370047  -0.2847249   0.1544869   0.0000000   0.0000000   0.0000000   0.0000000
148.3870968   0.0851697  -0.0367672  -0.2841500   0.1555720   0.0000000   0.0000000   0.0000000   0.0000000
149.2668622   0.0851562  -0.0366176  -0.2835656   0.1566508   0.0000000   0.0000000   0.0000000   0.0000000
150.1466276   0.0850583  -0.0361727  -0.2829274   0.1577000   0.0000000   0.0000000   0.0000000   0.0000000
151.0263930   0.0850448  -0.0359865  -0.2823098   0.1587405   0.0000000   0.0000000   0.0000000   0.0000000
151.9061584   0.0854651  -0.0356091  -0.2816874   0.1597971   0.0000000   0.0000000   0.0000000   0.0000000
152.7859238   0.0855778  -0.0354438  -0.2810691   0.1608331   0.0000000   0.0000000   0.0000000   0.0000000
153.6656891   0.0856052  -0.0352210  -0.2803827   0.1619087   0.0000000   0.0000000   0.0000000   0.0000000
154.5454545   0.0856568  -0.0351668  -0.2797334   0.1628730   0.0000000   0.0000000   0.0000000   0.0000000
155.4252199   0.0858766  -0.0350108  -0.2791020   0.1639875   0.0000000   0.0000000   0.0000000   0.0000000
156.3049853   0.0860208  -0.0343893  -0.2784627   0.1650070   0.0000000   0.0000000   0.0000000   0.0000000
157.1847507   0.0858997  -0.0344243  -0.2777956   0.1660182   0.0000000   0.0000000   0.0000000   0.0000000
158.0645161   0.0861026  -0.0339138  -0.2771431   0.1670735   0.0000000   0.0000000   0.0000000   0.0000000
158.9442815   0.0863931  -0.0336733  -0.2765038   0.1680678   0.0000000   0.0000000   0.0000000   0.0000000
159.8240469   0.0865527  -0.0335846  -0.2758317   0.1691124   0.0000000   0.0000000   0.0000000   0.0000000
160.7038123   0.0865434  -0.0333689  -0.2751449   0.1700289   0.0000000   0.0000000   0.0000000   0.0000000
161.5835777   0.0865893  -0.0329921  -0.2744265   0.1712093   0.0000000   0.0000000   0.0000000   0.0000000
162.4633431   0.0868543  -0.0329972  -0.2737278   0.1721011   0.0000000   0.0000000   0.0000000   0.0000000
163.3431085   0.0870813  -0.0327664  -0.2731345   0.1731111   0.0000000   0.0000000   0.0000000   0.0000000
164.2228739   0.0872733  -0.0324303  -0.2724879   0.1741381   0.0000000   0.0000000   0.0000000   0.0000000
165.1026393   0.0873763  -0.0321341  -0.2717413   0.1752098   0.0000000   0.0000000   0.0000000   0.0000000
165.9824047   0.0873881  -0.0319123  -0.2711427   0.1761195   0.0000000   0.0000000   0.0000000   0.0000000
166.8621701   0.0874970  -0.0319712  -0.2704302   0.1771457   0.0000000   0.0000000   0.0000000   0.0000000
167.7419355   0.0875247  -0.0316016  -0.2697093   0.1781216   0.0000000   0.0000000   0.0000000   0.0000000
168.6217009   0.0877711  -0.0315072  -0.2690895   0.1790121   0.0000000   0.0000000   0.0000000   0.0000000
169.5014663   0.0878623  -0.0313517  -0.2682371   0.1800019   0.0000000   0.0000000   0.0000000   0.0000000
170.3812317   0.0882001  -0.0311121  -0.2674999   0.1811571   0.0000000   0.0000000   0.0000000   0.0000000
171.2609971   0.0882312  -0.0307909  -0.2668064   0.1819300   0.0000000   0.0000000   0.0000000   0.0000000
172.1407625   0.0881940  -0.0306626  -0.2661118   0.1828617   0.0000000   0.0000000   0.0000000   0.0000000
173.0205279   0.0886342  -0.0305353  -0.2655138   0.1838231   0.0000000   0.0000000   0.0000000   0.0000000
173.9002933   0.0888312  -0.0304000  -0.2647259   0.1848633   0.0000000   0.0000000   0.0000000   0.0000000
174.7800587   0.0889118  -0.0300381  -0.2640650   0.1858054   0.0000000   0.0000000   0.0000000   0.0000000
175.6598240   0.0889148  -0.0299956  -0.2631764   0.1867126   0.0000000   0.0000000   0.0000000   0.0000000
176.5395894   0.0893844  -0.0300332  -0.2625114   0.1877231   0.0000000   0.0000000   0.0000000   0.0000000
177.4193548   0.0892817  -0.0296676  -0.2618941   0.1885644   0.0000000   0.0000000   0.0000000   0.0000000
178.2991202   0.0894911  -0.0293937  -0.2611177   0.1897250   0.0000000   0.0000000   0.0000000   0.0000000
179.1788856   0.0896890  -0.0291862  -0.2601268   0.1905628   0.0000000   0.0000000   0.0000000   0.0000000
180.0586510   0.0898465  -0.0292615  -0.2594719   0.1914772   0.0000000   0.0000000   0.0000000   0.0000000
180.9384164   0.0900314  -0.0290225  -0.2587318   0.1925148   0.0000000   0.0000000   0.0000000   0.0000000
181.8181818   0.0901273  -0.0288355  -0.2581170   0.1933300   0.0000000   0.0000000   0.0000000   0.0000000
182.6979472   0.0903479  -0.0284758  -0.2575091   0.1944392   0.0000000   0.0000000   0.0000000   0.0000000
183.5777126   0.0905628  -0.0281771  -0.2566303   0.1952216   0.0000000   0.0000000   0.0000000   0.0000000
184.4574780   0.0906210  -0.0282384  -0.2556316   0.1961879   0.0000000   0.0000000   0.0000000   0.0000000
185.3372434   0.0909170  -0.0282441  -0.2549747   0.1969210   0.0000000   0.0000000   0.0000000   0.0000000
186.2170088   0.0911308  -0.0280372  -0.2543130   0.1977400   0.0000000   0.0000000   0.0000000   0.0000000
187.0967742   0.0914157  -0.0276559  -0.2534834   0.1987926   0.0000000   0.0000000   0.0000000   0.0000000
187.9765396   0.0914273  -0.0276535  -0.2525953   0.1996626   0.0000000   0.0000000   0.0000000   0.0000000
188.8563050   0.0915284  -0.0275026  -0.2518553   0.2006303   0.0000000   0.0000000   0.0000000   0.0000000
189.7360704   0.0917893  -0.0274874  -0.2512597   0.2014095   0.0000000   0.0000000   0.0000000   0.0000000
190.6158358   0.0920051  -0.0272260  -0.2503520   0.2024088   0.0000000   0.0000000   0.0000000   0.0000000
191.4956012   0.0920953  -0.0271279  -0.2496259   0.2032687   0.0000000   0.0000000   0.0000000   0.0000000
192.3753666   0.0923208  -0.0268768  -0.2486605   0.2040850   0.0000000   0.0000000   0.0000000   0.0000000
193.2551320   0.0928924  -0.0269243  -0.2482851   0.2049862   0.0000000   0.0000000   0.0000000   0.0000000
194.1348974   0.0926164  -0.0266145  -0.2471900   0.2060514   0.0000000   0.0000000   0.0000000   0.0000000
195.0146628   0.0929654  -0.0266893  -0.2462530   0.2067260   0.0000000   0.0000000   0.0000000   0.0000000
195.8944282   0.0931128  -0.0266747  -0.2457059   0.2077039   0.0000000   0.0000000   0.0000000   0.0000000
196.7741935   0.0935436  -0.0264970  -0.2447820   0.2085516   0.0000000   0.0000000   0.0000000   0.0000000
197.6539589   0.0936378  -0.0261743  -0.2439472   0.2094540   0.0000000   0.0000000   0.0000000   0.0000000
198.5337243   0.0938411  -0.0259839  -0.2434010   0.2103167   0.0000000   0.0000000   0.0000000   0.0000000
199.4134897   0.0938635  -0.0260414  -0.2426077   0.2111485   0.0000000   0.0000000   0.0000000   0.0000000
200.2932551   0.0944226  -0.0258565  -0.2415750   0.2118664   0.0000000   0.0000000   0.0000000   0.0000000
201.1730205   0.0943502  -0.0257530  -0.2406649   0.2125371   0.0000000   0.0000000   0.0000000   0.0000000
202.0527859   0.0946462  -0.0257371  -0.2398086   0.2133873   0.0000000   0.0000000   0.0000000   0.0000000
202.9325513   0.0947336  -0.0256683  -0.2393232   0.2143871   0.0000000   0.0000000   0.0000000   0.0000000
203.8123167   0.0950915  -0.0253152  -0.2381448   0.2153484   0.0000000   0.0000000   0.0000000   0.0000000
204.6920821   0.0951449  -0.0252225  -0.2376274   0.2161261   0.0000000   0.0000000   0.0000000   0.0000000
205.5718475   0.0953681  -0.0253248  -0.2365353   0.2168336   0.0000000   0.0000000   0.0000000   0.0000000
206.4516129   0.0957213  -0.0253849  -0.2357552   0.2178401   0.0000000   0.0000000   0.0000000   0.0000000
207.3313783   0.0959938  -0.0250390  -0.2350281   0.2185981   0.0000000   0.0000000   0.0000000   0.0000000
208.2111437   0.0958553  -0.0250345  -0.2343436   0.2193070   0.0000000   0.0000000   0.0000000   0.0000000
209.0909091   0.0962980  -0.0249566  -0.2331651   0.2198977   0.0000000   0.0000000   0.0000000   0.0000000
209.9706745   0.0964235  -0.0249219  -0.2327141   0.2207853   0.0000000   0.0000000   0.0000000   0.0000000
210.8504399   0.0966762  -0.0247880  -0.2316094   0.2216824   0.0000000   0.0000000   0.0000000   0.0000000
211.7302053   0.0967263  -0.0247424  -0.2309769   0.2224642   0.0000000   0.0000000   0.0000000   0.0000000
212.6099707   0.0972764  -0.0246823  -0.2299195   0.2230787   0.0000000   0.0000000   0.0000000   0.0000000
213.4897361   0.0971933  -0.0248498  -0.2292505   0.2238993   0.0000000   0.0000000   0.0000000   0.0000000
214.3695015   0.0975120  -0.0243446  -0.2284126   0.2246758   0.0000000   0.0000000   0.0000000   0.0000000
215.2492669   0.0978508  -0.0244247  -0.2274015   0.2257689   0.0000000   0.0000000   0.0000000   0.0000000
216.1290323   0.0979281  -0.0244045  -0.2265369   0.2262742   0.0000000   0.0000000   0.0000000   0.0000000
217.0087977   0.0983613  -0.0244058  -0.2254541   0.2269318   0.0000000   0.0000000   0.0000000   0.0000000
217.8885630   0.0984281  -0.0243141  -0.2249815   0.2277791   0.0000000   0.0000000   0.0000000   0.0000000
218.7683284   0.0986203  -0.0242426  -0.2241156   0.2286136   0.0000000   0.0000000   0.0000000   0.0000000
219.6480938   0.0989440  -0.0239054  -0.2230121   0.2293965   0.0000000   0.0000000   0.0000000   0.0000000
220.5278592   0.0992845  -0.0241874  -0.2224415   0.2301940   0.0000000   0.0000000   0.0000000   0.0000000
221.4076246   0.0992242  -0.0239899  -0.2214704   0.2309589   0.0000000   0.0000000   0.0000000   0.0000000
222.2873900   0.0996781  -0.0239331  -0.2206333   0.2316751   0.0000000   0.0000000   0.0000000   0.0000000
223.1671554   0.0995030  -0.0235707  -0.2196826   0.2327400   0.0000000   0.0000000   0.0000000   0.0000000
224.0469208   0.1002355  -0.0237555  -0.2185224   0.2331132   0.0000000   0.0000000   0.0000000   0.0000000
224.9266862   0.1002940  -0.0235927  -0.2176809   0.2337442   0.0000000   0.0000000   0.0000000   0.0000000
225.8064516   0.1003775  -0.0237098  -0.2169299   0.2345714   0.0000000   0.0000000   0.0000000   0.0000000
226.6862170   0.1006472  -0.0235727  -0.2159771   0.2353444   0.0000000   0.0000000   0.0000000   0.0000000
227.5659824   0.1010634  -0.0236789  -0.2152618   0.2359363   0.0000000   0.0000000   0.0000000   0.0000000
228.4457478   0.1010026  -0.0234705  -0.2144321   0.2367972   0.0000000   0.0000000   0.0000000   0.0000000
229.3255132   0.1013476  -0.0235648  -0.2134752   0.2375015   0.0000000   0.0000000   0.0000000   0.0000000
230.2052786   0.1015228  -0.0236645  -0.2125605   0.2380869   0.0000000   0.0000000   0.0000000   0.0000000
231.0850440   0.1021394  -0.0235242  -0.2116019   0.2388077   0.0000000   0.0000000   0.0000000   0.0000000
231.9648094   0.1021377  -0.0238216  -0.2109018   0.2393959   0.0000000   0.0000000   0.0000000   0.0000000
232.8445748   0.1027497  -0.0235969  -0.2100915   0.2403689   0.0000000   0.0000000   0.0000000   0.0000000
233.7243402   0.1023747  -0.0235616  -0.2089447   0.2407702   0.0000000   0.0000000   0.0000000   0.0000000
234.6041056   0.1030174  -0.0234335  -0.2082341   0.2416035   0.0000000   0.0000000   0.0000000   0.0000000
235.4838710   0.1033298  -0.0233298  -0.2070416   0.2424226   0.0000000   0.0000000   0.0000000   0.0000000
236.3636364   0.1034543  -0.0236351  -0.2063431   0.2430053   0.0000000   0.0000000   0.0000000   0.0000000
237.2434018   0.1034785  -0.0235678  -0.2050402   0.2437014   0.0000000   0.0000000   0.0000000   0.0000000
238.1231672   0.1039893  -0.0232644  -0.2045106   0.2442981   0.0000000   0.0000000   0.0000000   0.0000000
239.0029326   0.1042617  -0.0236458  -0.2032891   0.2454266   0.0000000   0.0000000   0.0000000   0.0000000
239.8826979   0.1045087  -0.0234097  -0.2024884   0.2460337   0.0000000   0.0000000   0.0000000   0.0000000
240.7624633   0.1047520  -0.0234104  -0.2018465   0.2463173   0.0000000   0.0000000   0.0000000   0.0000000
241.6422287   0.1051030  -0.0239884  -0.2006761   0.2469776   0.0000000   0.0000000   0.0000000   0.0000000
242.5219941   0.1049058  -0.0237222  -0.1995309   0.2475399   0.0000000   0.0000000   0.0000000   0.0000000
243.4017595   0.1054463  -0.0235777  -0.1984828   0.2480837   0.0000000   0.0000000   0.0000000   0.0000000
244.2815249   0.1056722  -0.0234872  -0.1980486   0.2492642   0.0000000   0.0000000   0.0000000   0.0000000
245.1612903   0.1056775  -0.0236675  -0.1969642   0.2494637   0.0000000   0.0000000   0.0000000   0.0000000
246.0410557   0.1059199  -0.0233751  -0.1965426   0.2505063   0.0000000   0.0000000   0.0000000   0.0000000
246.9208211   0.1064396  -0.0233907  -0.1951193   0.2510225   0.0000000   0.0000000   0.0000000   0.0000000
247.8005865   0.1066406  -0.0233118  -0.1944397   0.2514080   0.0000000   0.0000000   0.0000000   0.0000000
248.6803519   0.1069000  -0.0236053  -0.1935477   0.2522173   0.0000000   0.0000000   0.0000000   0.0000000
249.5601173   0.1069391  -0.0238318  -0.1922127   0.2527749   0.0000000   0.0000000   0.0000000   0.0000000
250.4398827   0.1071569  -0.0233559  -0.1912959   0.2534614   0.0000000   0.0000000   0.0000000   0.0000000
251.3196481   0.1075521  -0.0237599  -0.1904559   0.2539638   0.0000000   0.0000000   0.0000000   0.0000000
252.1994135   0.1077615  -0.0240648  -0.1896585   0.2546571   0.0000000   0.0000000   0.0000000   0.0000000
253.0791789   0.1082671  -0.0234808  -0.1886220   0.2556870   0.0000000   0.0000000   0.0000000   0.0000000
253.9589443   0.1084542  -0.0237544  -0.1876346   0.2557337   0.0000000   0.0000000   0.0000000   0.0000000
254.8387097   0.1084008  -0.0239550  -0.1865277   0.2566590   0.0000000   0.0000000   0.0000000   0.0000000
255.7184751   0.1088499  -0.0239724  -0.1859688   0.2572649   0.0000000   0.0000000   0.0000000   0.0000000
256.5982405   0.1089554  -0.0237735  -0.1848024   0.2578152   0.0000000   0.0000000   0.0000000   0.0000000
257.4780059   0.1094622  -0.0237401  -0.1838855   0.2583007   0.0000000   0.0000000   0.0000000   0.0000000
258.3577713   0.1090878  -0.0239640  -0.1829814   0.2590635   0.0000000   0.0000000   0.0000000   0.0000000
259.2375367   0.1098910  -0.0237919  -0.1818981   0.2593409   0.0000000   0.0000000   0.0000000   0.0000000
260.1173021   0.1099373  -0.0242881  -0.1808688   0.2602080   0.0000000   0.0000000   0.0000000   0.0000000
